Index       TIME              V(IN)            V(OUT)      
0        0.00000000e+00    0.00000000e+00    1.80000010e+00
1        1.00000000e-12    0.00000000e+00    1.80000009e+00
2        3.00000000e-12    0.00000000e+00    1.80000009e+00
3        7.00000000e-12    0.00000000e+00    1.80000007e+00
4        1.50000000e-11    0.00000000e+00    1.80000004e+00
5        3.10000000e-11    0.00000000e+00    1.80000001e+00
6        6.30000000e-11    0.00000000e+00    1.79999997e+00
7        1.27000000e-10    0.00000000e+00    1.79999996e+00
8        2.55000000e-10    0.00000000e+00    1.79999995e+00
9        5.11000000e-10    0.00000000e+00    1.79999996e+00
10       1.02300000e-09    0.00000000e+00    1.79999996e+00
11       1.50000000e-09    0.00000000e+00    1.79999996e+00
12       1.50312500e-09    1.12500000e-02    1.80532124e+00
13       1.50625000e-09    2.25000000e-02    1.81014748e+00
14       1.50937500e-09    3.37500000e-02    1.81473534e+00
15       1.51562500e-09    5.62500000e-02    1.82263963e+00
16       1.52812500e-09    1.01250000e-01    1.83456312e+00
17       1.54062500e-09    1.46250000e-01    1.84277433e+00
18       1.55312500e-09    1.91250000e-01    1.84867355e+00
19       1.57812500e-09    2.81250000e-01    1.85690143e+00
20       1.60312500e-09    3.71250000e-01    1.86302201e+00
21       1.65312500e-09    5.51250000e-01    1.87581879e+00
22       1.65868424e-09    5.71263254e-01    1.87625173e+00
23       1.66980271e-09    6.11289762e-01    1.87488432e+00
24       1.69203966e-09    6.91342779e-01    1.85575368e+00
25       1.71156940e-09    7.61649839e-01    1.81809021e+00
26       1.72914616e-09    8.24926193e-01    1.76932523e+00
27       1.74672293e-09    8.88202547e-01    1.70050858e+00
28       1.74937686e-09    8.97756688e-01    1.68717544e+00
29       1.75203079e-09    9.07310828e-01    1.67321764e+00
30       1.75733864e-09    9.26419110e-01    1.64204155e+00
31       1.76264650e-09    9.45527391e-01    1.60566586e+00
32       1.76795435e-09    9.64635673e-01    1.56337714e+00
33       1.77326221e-09    9.83743954e-01    1.51514689e+00
34       1.77857007e-09    1.00285224e+00    1.46112164e+00
35       1.78387792e-09    1.02196052e+00    1.40135105e+00
36       1.78918578e-09    1.04106880e+00    1.33582985e+00
37       1.79449363e-09    1.06017708e+00    1.26453521e+00
38       1.79980149e-09    1.07928536e+00    1.18743672e+00
39       1.80510934e-09    1.09839364e+00    1.10452273e+00
40       1.81041720e-09    1.11750192e+00    1.01580662e+00
41       1.81572506e-09    1.13661020e+00    9.21353032e-01
42       1.82103291e-09    1.15571849e+00    8.21302284e-01
43       1.82634077e-09    1.17482677e+00    7.15957027e-01
44       1.83164862e-09    1.19393505e+00    6.06024239e-01
45       1.83695648e-09    1.21304333e+00    4.93633624e-01
46       1.84222003e-09    1.23199212e+00    3.88251619e-01
47       1.84466467e-09    1.24079280e+00    3.43560415e-01
48       1.84710930e-09    1.24959348e+00    3.01974141e-01
49       1.85199857e-09    1.26719484e+00    2.31834089e-01
50       1.85688783e-09    1.28479620e+00    1.76956134e-01
51       1.86177710e-09    1.30239756e+00    1.34851202e-01
52       1.86666637e-09    1.31999892e+00    1.03144298e-01
53       1.87155563e-09    1.33760028e+00    7.96529208e-02
54       1.87644490e-09    1.35520164e+00    6.24414714e-02
55       1.88133417e-09    1.37280300e+00    4.99303092e-02
56       1.88622343e-09    1.39040436e+00    4.08726558e-02
57       1.89600197e-09    1.42560709e+00    2.94279942e-02
58       1.91555904e-09    1.49601253e+00    2.01751537e-02
59       1.95467317e-09    1.63682341e+00    1.69899722e-02
60       1.98854126e-09    1.75874853e+00    1.62804329e-02
61       2.00000000e-09    1.80000000e+00    1.59375311e-02
62       2.00338681e-09    1.80000000e+00    1.17056066e-02
63       2.00643494e-09    1.80000000e+00    8.82805015e-03
64       2.00948306e-09    1.80000000e+00    6.35331958e-03
65       2.01557932e-09    1.80000000e+00    3.22630736e-03
66       2.02167558e-09    1.80000000e+00    1.63667969e-03
67       2.03386809e-09    1.80000000e+00    3.42168675e-04
68       2.04606060e-09    1.80000000e+00    7.14321593e-05
69       2.07044562e-09    1.80000000e+00   -1.03388248e-05
70       2.09483065e-09    1.80000000e+00    2.17290074e-06
71       2.14360069e-09    1.80000000e+00   -1.00762916e-06
72       2.24114079e-09    1.80000000e+00    7.25612996e-07
73       2.43622097e-09    1.80000000e+00   -5.92983567e-07
74       2.82638135e-09    1.80000000e+00    5.58929898e-07
75       3.60670210e-09    1.80000000e+00   -5.19054598e-07
76       4.50000000e-09    1.80000000e+00    5.15485836e-07
77       4.50312500e-09    1.78875000e+00   -4.48232861e-03
78       4.50625000e-09    1.77750000e+00   -7.69002981e-03
79       4.50937500e-09    1.76625000e+00   -1.03679429e-02
80       4.51562500e-09    1.74375000e+00   -1.34710458e-02
81       4.52187500e-09    1.72125000e+00   -1.48787527e-02
82       4.53437500e-09    1.67625000e+00   -1.60351211e-02
83       4.54687500e-09    1.63125000e+00   -1.64741462e-02
84       4.57187500e-09    1.54125000e+00   -1.72793602e-02
85       4.59687500e-09    1.45125000e+00   -1.83558224e-02
86       4.64687500e-09    1.27125000e+00   -2.43928576e-02
87       4.69687500e-09    1.09125000e+00   -2.53423140e-02
88       4.74687500e-09    9.11250000e-01   -1.04983430e-02
89       4.79187500e-09    7.49250000e-01    1.85820492e-02
90       4.79634232e-09    7.33167655e-01    2.31807477e-02
91       4.80527695e-09    7.01002965e-01    3.37658402e-02
92       4.81421159e-09    6.68838275e-01    4.76177055e-02
93       4.82314623e-09    6.36673585e-01    6.64138467e-02
94       4.83208086e-09    6.04508896e-01    9.27112850e-02
95       4.84101550e-09    5.72344206e-01    1.28189871e-01
96       4.84995013e-09    5.40179516e-01    1.72650010e-01
97       4.85888477e-09    5.08014826e-01    2.25484472e-01
98       4.86781941e-09    4.75850136e-01    2.86383319e-01
99       4.87675404e-09    4.43685446e-01    3.55147372e-01
100      4.88568868e-09    4.11520756e-01    4.31344506e-01
101      4.89462331e-09    3.79356066e-01    5.14371620e-01
102      4.90355795e-09    3.47191377e-01    6.03706125e-01
103      4.91249259e-09    3.15026687e-01    6.98965886e-01
104      4.92142722e-09    2.82861997e-01    7.99807800e-01
105      4.93036186e-09    2.50697307e-01    9.05733043e-01
106      4.93929650e-09    2.18532617e-01    1.01551690e+00
107      4.94823113e-09    1.86367927e-01    1.12580688e+00
108      4.95716577e-09    1.54203237e-01    1.23029804e+00
109      4.96610040e-09    1.22038547e-01    1.32231549e+00
110      4.97503504e-09    8.98738575e-02    1.40004693e+00
111      4.98396968e-09    5.77091677e-02    1.46517591e+00
112      4.99290431e-09    2.55444778e-02    1.51956576e+00
113      5.00000000e-09    0.00000000e+00    1.55610657e+00
114      5.00089346e-09    0.00000000e+00    1.56171560e+00
115      5.00159399e-09    0.00000000e+00    1.56603891e+00
116      5.00299504e-09    0.00000000e+00    1.57452894e+00
117      5.00579713e-09    0.00000000e+00    1.59063760e+00
118      5.01140133e-09    0.00000000e+00    1.61963646e+00
119      5.01700552e-09    0.00000000e+00    1.64475643e+00
120      5.02260972e-09    0.00000000e+00    1.66648339e+00
121      5.02821391e-09    0.00000000e+00    1.68525012e+00
122      5.03942230e-09    0.00000000e+00    1.71551621e+00
123      5.05063069e-09    0.00000000e+00    1.73792700e+00
124      5.06183908e-09    0.00000000e+00    1.75445977e+00
125      5.07304747e-09    0.00000000e+00    1.76662613e+00
126      5.08425586e-09    0.00000000e+00    1.77556231e+00
127      5.10667263e-09    0.00000000e+00    1.78712006e+00
128      5.15150619e-09    0.00000000e+00    1.79698480e+00
129      5.24117330e-09    0.00000000e+00    1.80035498e+00
130      5.32187370e-09    0.00000000e+00    1.79995385e+00
131      5.40257410e-09    0.00000000e+00    1.80000405e+00
132      5.48327450e-09    0.00000000e+00    1.79999941e+00
133      5.64467530e-09    0.00000000e+00    1.80000014e+00
134      5.96747689e-09    0.00000000e+00    1.79999985e+00
135      6.61308009e-09    0.00000000e+00    1.80000004e+00
136      7.90428648e-09    0.00000000e+00    1.79999989e+00
137      8.50000000e-09    0.00000000e+00    1.80000000e+00
138      8.50312500e-09    1.12500000e-02    1.80532134e+00
139      8.50625000e-09    2.25000000e-02    1.81014757e+00
140      8.50937500e-09    3.37500000e-02    1.81473542e+00
141      8.51562500e-09    5.62500000e-02    1.82263970e+00
142      8.52812500e-09    1.01250000e-01    1.83456316e+00
143      8.54062500e-09    1.46250000e-01    1.84277436e+00
144      8.55312500e-09    1.91250000e-01    1.84867357e+00
145      8.57812500e-09    2.81250000e-01    1.85690143e+00
146      8.60312500e-09    3.71250000e-01    1.86302202e+00
147      8.65312500e-09    5.51250000e-01    1.87581879e+00
148      8.65868424e-09    5.71263254e-01    1.87625173e+00
149      8.66980271e-09    6.11289762e-01    1.87488432e+00
150      8.69203966e-09    6.91342778e-01    1.85575368e+00
151      8.71156940e-09    7.61649839e-01    1.81809021e+00
152      8.72914616e-09    8.24926193e-01    1.76932523e+00
153      8.74672293e-09    8.88202547e-01    1.70050858e+00
154      8.74937686e-09    8.97756688e-01    1.68717544e+00
155      8.75203079e-09    9.07310829e-01    1.67321764e+00
156      8.75733864e-09    9.26419110e-01    1.64204155e+00
157      8.76264650e-09    9.45527391e-01    1.60566586e+00
158      8.76795435e-09    9.64635673e-01    1.56337714e+00
159      8.77326221e-09    9.83743954e-01    1.51514689e+00
160      8.77857007e-09    1.00285224e+00    1.46112164e+00
161      8.78387792e-09    1.02196052e+00    1.40135105e+00
162      8.78918578e-09    1.04106880e+00    1.33582985e+00
163      8.79449363e-09    1.06017708e+00    1.26453521e+00
164      8.79980149e-09    1.07928536e+00    1.18743672e+00
165      8.80510934e-09    1.09839364e+00    1.10452273e+00
166      8.81041720e-09    1.11750192e+00    1.01580662e+00
167      8.81572506e-09    1.13661020e+00    9.21353033e-01
168      8.82103291e-09    1.15571849e+00    8.21302284e-01
169      8.82634077e-09    1.17482677e+00    7.15957028e-01
170      8.83164862e-09    1.19393505e+00    6.06024240e-01
171      8.83695648e-09    1.21304333e+00    4.93633626e-01
172      8.84222003e-09    1.23199212e+00    3.88251620e-01
173      8.84466467e-09    1.24079280e+00    3.43560415e-01
174      8.84710930e-09    1.24959348e+00    3.01974141e-01
175      8.85199857e-09    1.26719484e+00    2.31834089e-01
176      8.85688783e-09    1.28479620e+00    1.76956134e-01
177      8.86177710e-09    1.30239756e+00    1.34851202e-01
178      8.86666637e-09    1.31999892e+00    1.03144298e-01
179      8.87155563e-09    1.33760028e+00    7.96529209e-02
180      8.87644490e-09    1.35520164e+00    6.24414715e-02
181      8.88133417e-09    1.37280300e+00    4.99303092e-02
182      8.88622343e-09    1.39040436e+00    4.08726558e-02
183      8.89600197e-09    1.42560709e+00    2.94279942e-02
184      8.91555904e-09    1.49601253e+00    2.01751537e-02
185      8.95467317e-09    1.63682341e+00    1.69899722e-02
186      8.98854126e-09    1.75874853e+00    1.62804329e-02
187      9.00000000e-09    1.80000000e+00    1.59375311e-02
188      9.00338681e-09    1.80000000e+00    1.17056066e-02
189      9.00643494e-09    1.80000000e+00    8.82805015e-03
190      9.00948306e-09    1.80000000e+00    6.35331958e-03
191      9.01557932e-09    1.80000000e+00    3.22630736e-03
192      9.02167558e-09    1.80000000e+00    1.63667969e-03
193      9.03386809e-09    1.80000000e+00    3.42168675e-04
194      9.04606060e-09    1.80000000e+00    7.14321593e-05
195      9.07044562e-09    1.80000000e+00   -1.03388248e-05
196      9.09483065e-09    1.80000000e+00    2.17290074e-06
197      9.14360069e-09    1.80000000e+00   -1.00762916e-06
198      9.24114079e-09    1.80000000e+00    7.25612996e-07
199      9.43622097e-09    1.80000000e+00   -5.92983567e-07
200      9.82638135e-09    1.80000000e+00    5.58929898e-07
201      1.05000000e-08    1.80000000e+00   -5.15388648e-07
202      1.05031250e-08    1.78875000e+00   -4.48314374e-03
203      1.05062500e-08    1.77750000e+00   -7.69061114e-03
204      1.05093750e-08    1.76625000e+00   -1.03683297e-02
205      1.05156250e-08    1.74375000e+00   -1.34712118e-02
206      1.05218750e-08    1.72125000e+00   -1.48788246e-02
207      1.05343750e-08    1.67625000e+00   -1.60351298e-02
208      1.05468750e-08    1.63125000e+00   -1.64741473e-02
209      1.05718750e-08    1.54125000e+00   -1.72793600e-02
210      1.05968750e-08    1.45125000e+00   -1.83558225e-02
211      1.06468750e-08    1.27125000e+00   -2.43928576e-02
212      1.06968750e-08    1.09125000e+00   -2.53423140e-02
213      1.07468750e-08    9.11250000e-01   -1.04983430e-02
214      1.07918750e-08    7.49250000e-01    1.85820492e-02
215      1.07963423e-08    7.33167655e-01    2.31807477e-02
216      1.08052770e-08    7.01002965e-01    3.37658402e-02
217      1.08142116e-08    6.68838275e-01    4.76177055e-02
218      1.08231462e-08    6.36673585e-01    6.64138467e-02
219      1.08320809e-08    6.04508896e-01    9.27112850e-02
220      1.08410155e-08    5.72344206e-01    1.28189871e-01
221      1.08499501e-08    5.40179516e-01    1.72650010e-01
222      1.08588848e-08    5.08014826e-01    2.25484472e-01
223      1.08678194e-08    4.75850136e-01    2.86383319e-01
224      1.08767540e-08    4.43685446e-01    3.55147372e-01
225      1.08856887e-08    4.11520756e-01    4.31344506e-01
226      1.08946233e-08    3.79356066e-01    5.14371619e-01
227      1.09035580e-08    3.47191377e-01    6.03706125e-01
228      1.09124926e-08    3.15026687e-01    6.98965886e-01
229      1.09214272e-08    2.82861997e-01    7.99807800e-01
230      1.09303619e-08    2.50697307e-01    9.05733042e-01
231      1.09392965e-08    2.18532617e-01    1.01551690e+00
232      1.09482311e-08    1.86367927e-01    1.12580688e+00
233      1.09571658e-08    1.54203237e-01    1.23029804e+00
234      1.09661004e-08    1.22038548e-01    1.32231549e+00
235      1.09750350e-08    8.98738577e-02    1.40004693e+00
236      1.09839697e-08    5.77091678e-02    1.46517591e+00
237      1.09929043e-08    2.55444779e-02    1.51956576e+00
238      1.10000000e-08    0.00000000e+00    1.55610657e+00
239      1.10008935e-08    0.00000000e+00    1.56171560e+00
240      1.10015940e-08    0.00000000e+00    1.56603891e+00
241      1.10029950e-08    0.00000000e+00    1.57452894e+00
242      1.10057971e-08    0.00000000e+00    1.59063760e+00
243      1.10114013e-08    0.00000000e+00    1.61963646e+00
244      1.10170055e-08    0.00000000e+00    1.64475643e+00
245      1.10226097e-08    0.00000000e+00    1.66648339e+00
246      1.10282139e-08    0.00000000e+00    1.68525012e+00
247      1.10394223e-08    0.00000000e+00    1.71551621e+00
248      1.10506307e-08    0.00000000e+00    1.73792700e+00
249      1.10618391e-08    0.00000000e+00    1.75445977e+00
250      1.10730475e-08    0.00000000e+00    1.76662613e+00
251      1.10842559e-08    0.00000000e+00    1.77556231e+00
252      1.11066726e-08    0.00000000e+00    1.78712006e+00
253      1.11515062e-08    0.00000000e+00    1.79698480e+00
254      1.12411733e-08    0.00000000e+00    1.80035498e+00
255      1.13218737e-08    0.00000000e+00    1.79995385e+00
256      1.14025741e-08    0.00000000e+00    1.80000405e+00
257      1.14832745e-08    0.00000000e+00    1.79999941e+00
258      1.16446753e-08    0.00000000e+00    1.80000014e+00
259      1.19674769e-08    0.00000000e+00    1.79999985e+00
260      1.26130801e-08    0.00000000e+00    1.80000004e+00
261      1.39042865e-08    0.00000000e+00    1.79999989e+00
262      1.64042865e-08    0.00000000e+00    1.80000002e+00
263      1.89042865e-08    0.00000000e+00    1.79999990e+00
264      2.14042865e-08    0.00000000e+00    1.80000001e+00
265      2.39042865e-08    0.00000000e+00    1.79999991e+00
266      2.50000000e-08    0.00000000e+00    1.79999999e+00
End of Xyce(TM) Simulation
