Index       TIME             V(IN1)            V(IN2)            V(IN3)            V(IN4)            V(OUT)      
0        0.00000000e+00    0.00000000e+00    0.00000000e+00    0.00000000e+00    0.00000000e+00    3.24663883e-08
1        1.00000000e-12    0.00000000e+00    0.00000000e+00    0.00000000e+00    0.00000000e+00    3.24663883e-08
2        3.00000000e-12    0.00000000e+00    0.00000000e+00    0.00000000e+00    0.00000000e+00    3.24663881e-08
3        7.00000000e-12    0.00000000e+00    0.00000000e+00    0.00000000e+00    0.00000000e+00    3.24663882e-08
4        1.50000000e-11    0.00000000e+00    0.00000000e+00    0.00000000e+00    0.00000000e+00    3.24663883e-08
5        3.10000000e-11    0.00000000e+00    0.00000000e+00    0.00000000e+00    0.00000000e+00    3.24663883e-08
6        6.30000000e-11    0.00000000e+00    0.00000000e+00    0.00000000e+00    0.00000000e+00    3.24663883e-08
7        1.27000000e-10    0.00000000e+00    0.00000000e+00    0.00000000e+00    0.00000000e+00    3.24663886e-08
8        2.55000000e-10    0.00000000e+00    0.00000000e+00    0.00000000e+00    0.00000000e+00    3.24663882e-08
9        5.11000000e-10    0.00000000e+00    0.00000000e+00    0.00000000e+00    0.00000000e+00    3.24663885e-08
10       1.02300000e-09    0.00000000e+00    0.00000000e+00    0.00000000e+00    0.00000000e+00    3.24663885e-08
11       2.00000000e-09    0.00000000e+00    0.00000000e+00    0.00000000e+00    0.00000000e+00    3.24663882e-08
12       2.03637432e-09    3.27368898e-02    0.00000000e+00    0.00000000e+00    0.00000000e+00    5.40986916e-04
13       2.06562449e-09    5.90620402e-02    0.00000000e+00    0.00000000e+00    0.00000000e+00    7.15306354e-04
14       2.09487466e-09    8.53871905e-02    0.00000000e+00    0.00000000e+00    0.00000000e+00    7.90519245e-04
15       2.15337499e-09    1.38037491e-01    0.00000000e+00    0.00000000e+00    0.00000000e+00    6.54023020e-04
16       2.27037566e-09    2.43338093e-01    0.00000000e+00    0.00000000e+00    0.00000000e+00    3.40861067e-04
17       2.38737633e-09    3.48638694e-01    0.00000000e+00    0.00000000e+00    0.00000000e+00    1.99560302e-04
18       2.62137766e-09    5.59239897e-01    0.00000000e+00    0.00000000e+00    0.00000000e+00   -3.60451936e-04
19       2.64363127e-09    5.79268146e-01    0.00000000e+00    0.00000000e+00    0.00000000e+00   -5.59612588e-04
20       2.68813849e-09    6.19324645e-01    0.00000000e+00    0.00000000e+00    0.00000000e+00   -1.16554433e-03
21       2.73264572e-09    6.59381144e-01    0.00000000e+00    0.00000000e+00    0.00000000e+00   -2.01687795e-03
22       2.77715294e-09    6.99437643e-01    0.00000000e+00    0.00000000e+00    0.00000000e+00   -3.01278986e-03
23       2.82166016e-09    7.39494142e-01    0.00000000e+00    0.00000000e+00    0.00000000e+00   -4.21282471e-03
24       2.86616738e-09    7.79550641e-01    0.00000000e+00    0.00000000e+00    0.00000000e+00   -5.62128267e-03
25       2.91067460e-09    8.19607140e-01    0.00000000e+00    0.00000000e+00    0.00000000e+00   -7.36276030e-03
26       2.95518182e-09    8.59663639e-01    0.00000000e+00    0.00000000e+00    0.00000000e+00   -9.75845422e-03
27       2.99968904e-09    8.99720138e-01    0.00000000e+00    0.00000000e+00    0.00000000e+00   -1.32617485e-02
28       3.04419626e-09    9.39776637e-01    0.00000000e+00    0.00000000e+00    0.00000000e+00   -1.89329002e-02
29       3.08870348e-09    9.79833136e-01    0.00000000e+00    0.00000000e+00    0.00000000e+00   -2.70685594e-02
30       3.13321071e-09    1.01988964e+00    0.00000000e+00    0.00000000e+00    0.00000000e+00   -2.64981484e-02
31       3.17326720e-09    1.05594048e+00    0.00000000e+00    0.00000000e+00    0.00000000e+00   -1.71170245e-02
32       3.21332370e-09    1.09199133e+00    0.00000000e+00    0.00000000e+00    0.00000000e+00    6.82273563e-03
33       3.25338020e-09    1.12804218e+00    0.00000000e+00    0.00000000e+00    0.00000000e+00    6.01692132e-02
34       3.25787306e-09    1.13208576e+00    0.00000000e+00    0.00000000e+00    0.00000000e+00    6.97781101e-02
35       3.26236592e-09    1.13612933e+00    0.00000000e+00    0.00000000e+00    0.00000000e+00    8.01573835e-02
36       3.27135164e-09    1.14421648e+00    0.00000000e+00    0.00000000e+00    0.00000000e+00    1.05516193e-01
37       3.28033736e-09    1.15230362e+00    0.00000000e+00    0.00000000e+00    0.00000000e+00    1.36336257e-01
38       3.28932308e-09    1.16039077e+00    0.00000000e+00    0.00000000e+00    0.00000000e+00    1.72214699e-01
39       3.29830879e-09    1.16847791e+00    0.00000000e+00    0.00000000e+00    0.00000000e+00    2.12859136e-01
40       3.30729451e-09    1.17656506e+00    0.00000000e+00    0.00000000e+00    0.00000000e+00    2.57928554e-01
41       3.31628023e-09    1.18465221e+00    0.00000000e+00    0.00000000e+00    0.00000000e+00    3.07055823e-01
42       3.32526595e-09    1.19273935e+00    0.00000000e+00    0.00000000e+00    0.00000000e+00    3.59802240e-01
43       3.33425167e-09    1.20082650e+00    0.00000000e+00    0.00000000e+00    0.00000000e+00    4.15780503e-01
44       3.34323739e-09    1.20891365e+00    0.00000000e+00    0.00000000e+00    0.00000000e+00    4.74530568e-01
45       3.35222310e-09    1.21700079e+00    0.00000000e+00    0.00000000e+00    0.00000000e+00    5.35628090e-01
46       3.37019454e-09    1.23317509e+00    0.00000000e+00    0.00000000e+00    0.00000000e+00    6.63284297e-01
47       3.38816598e-09    1.24934938e+00    0.00000000e+00    0.00000000e+00    0.00000000e+00    7.96646934e-01
48       3.40613741e-09    1.26552367e+00    0.00000000e+00    0.00000000e+00    0.00000000e+00    9.34036182e-01
49       3.42410885e-09    1.28169796e+00    0.00000000e+00    0.00000000e+00    0.00000000e+00    1.07398106e+00
50       3.44208029e-09    1.29787226e+00    0.00000000e+00    0.00000000e+00    0.00000000e+00    1.21456821e+00
51       3.46005172e-09    1.31404655e+00    0.00000000e+00    0.00000000e+00    0.00000000e+00    1.34641847e+00
52       3.47802316e-09    1.33022084e+00    0.00000000e+00    0.00000000e+00    0.00000000e+00    1.45905896e+00
53       3.49599460e-09    1.34639514e+00    0.00000000e+00    0.00000000e+00    0.00000000e+00    1.54825462e+00
54       3.51396603e-09    1.36256943e+00    0.00000000e+00    0.00000000e+00    0.00000000e+00    1.61565966e+00
55       3.53193747e-09    1.37874372e+00    0.00000000e+00    0.00000000e+00    0.00000000e+00    1.66522256e+00
56       3.54990891e-09    1.39491802e+00    0.00000000e+00    0.00000000e+00    0.00000000e+00    1.70110689e+00
57       3.56788034e-09    1.41109231e+00    0.00000000e+00    0.00000000e+00    0.00000000e+00    1.72689963e+00
58       3.58585178e-09    1.42726660e+00    0.00000000e+00    0.00000000e+00    0.00000000e+00    1.74540734e+00
59       3.60382322e-09    1.44344089e+00    0.00000000e+00    0.00000000e+00    0.00000000e+00    1.75872209e+00
60       3.63976609e-09    1.47578948e+00    0.00000000e+00    0.00000000e+00    0.00000000e+00    1.77568686e+00
61       3.71165183e-09    1.54048665e+00    0.00000000e+00    0.00000000e+00    0.00000000e+00    1.79043377e+00
62       3.78353758e-09    1.60518382e+00    0.00000000e+00    0.00000000e+00    0.00000000e+00    1.79480237e+00
63       3.85542333e-09    1.66988099e+00    0.00000000e+00    0.00000000e+00    0.00000000e+00    1.79672560e+00
64       3.92730907e-09    1.73457817e+00    0.00000000e+00    0.00000000e+00    0.00000000e+00    1.79777892e+00
65       4.00000000e-09    1.80000000e+00    0.00000000e+00    0.00000000e+00    0.00000000e+00    1.79842829e+00
66       4.01437715e-09    1.80000000e+00    0.00000000e+00    0.00000000e+00    0.00000000e+00    1.79815538e+00
67       4.02875430e-09    1.80000000e+00    0.00000000e+00    0.00000000e+00    0.00000000e+00    1.79811463e+00
68       4.04313145e-09    1.80000000e+00    0.00000000e+00    0.00000000e+00    0.00000000e+00    1.79815192e+00
69       4.07188575e-09    1.80000000e+00    0.00000000e+00    0.00000000e+00    0.00000000e+00    1.79844004e+00
70       4.12939434e-09    1.80000000e+00    0.00000000e+00    0.00000000e+00    0.00000000e+00    1.79896474e+00
71       4.24441154e-09    1.80000000e+00    0.00000000e+00    0.00000000e+00    0.00000000e+00    1.79939029e+00
72       4.35942873e-09    1.80000000e+00    0.00000000e+00    0.00000000e+00    0.00000000e+00    1.79952097e+00
73       4.58946312e-09    1.80000000e+00    0.00000000e+00    0.00000000e+00    0.00000000e+00    1.79967939e+00
74       5.04953190e-09    1.80000000e+00    0.00000000e+00    0.00000000e+00    0.00000000e+00    1.79976606e+00
75       5.50960067e-09    1.80000000e+00    0.00000000e+00    0.00000000e+00    0.00000000e+00    1.79980290e+00
76       6.00000000e-09    1.80000000e+00    0.00000000e+00    0.00000000e+00    0.00000000e+00    1.79982856e+00
77       6.02994972e-09    1.77304525e+00    2.69547469e-02    0.00000000e+00    0.00000000e+00    1.79952818e+00
78       6.05409067e-09    1.75131839e+00    4.86816070e-02    0.00000000e+00    0.00000000e+00    1.79951566e+00
79       6.07823163e-09    1.72959153e+00    7.04084672e-02    0.00000000e+00    0.00000000e+00    1.79955975e+00
80       6.12651354e-09    1.68613781e+00    1.13862187e-01    0.00000000e+00    0.00000000e+00    1.79972196e+00
81       6.22307736e-09    1.59923037e+00    2.00769628e-01    0.00000000e+00    0.00000000e+00    1.79983357e+00
82       6.31964119e-09    1.51232293e+00    2.87677068e-01    0.00000000e+00    0.00000000e+00    1.79982403e+00
83       6.51276883e-09    1.33850805e+00    4.61491949e-01    0.00000000e+00    0.00000000e+00    1.79985766e+00
84       6.70589648e-09    1.16469317e+00    6.35306830e-01    0.00000000e+00    0.00000000e+00    1.80027834e+00
85       6.89902412e-09    9.90878289e-01    8.09121711e-01    0.00000000e+00    0.00000000e+00    1.80026968e+00
86       7.09215177e-09    8.17063408e-01    9.82936592e-01    0.00000000e+00    0.00000000e+00    1.80026556e+00
87       7.12091667e-09    7.91174998e-01    1.00882500e+00    0.00000000e+00    0.00000000e+00    1.80018657e+00
88       7.14968157e-09    7.65286589e-01    1.03471341e+00    0.00000000e+00    0.00000000e+00    1.80012084e+00
89       7.20721137e-09    7.13509771e-01    1.08649023e+00    0.00000000e+00    0.00000000e+00    1.79996399e+00
90       7.26474116e-09    6.61732952e-01    1.13826705e+00    0.00000000e+00    0.00000000e+00    1.79979132e+00
91       7.32227096e-09    6.09956134e-01    1.19004387e+00    0.00000000e+00    0.00000000e+00    1.79963875e+00
92       7.43733056e-09    5.06402497e-01    1.29359750e+00    0.00000000e+00    0.00000000e+00    1.79955287e+00
93       7.55239015e-09    4.02848861e-01    1.39715114e+00    0.00000000e+00    0.00000000e+00    1.79974523e+00
94       7.66744975e-09    2.99295224e-01    1.50070478e+00    0.00000000e+00    0.00000000e+00    1.79969072e+00
95       7.78250935e-09    1.95741587e-01    1.60425841e+00    0.00000000e+00    0.00000000e+00    1.79974817e+00
96       7.89756894e-09    9.21879505e-02    1.70781205e+00    0.00000000e+00    0.00000000e+00    1.79984812e+00
97       8.00000000e-09    0.00000000e+00    1.80000000e+00    0.00000000e+00    0.00000000e+00    1.79985602e+00
98       8.02301192e-09    0.00000000e+00    1.80000000e+00    0.00000000e+00    0.00000000e+00    1.79978329e+00
99       8.04198377e-09    0.00000000e+00    1.80000000e+00    0.00000000e+00    0.00000000e+00    1.79974439e+00
100      8.07992746e-09    0.00000000e+00    1.80000000e+00    0.00000000e+00    0.00000000e+00    1.79970431e+00
101      8.15581485e-09    0.00000000e+00    1.80000000e+00    0.00000000e+00    0.00000000e+00    1.79974477e+00
102      8.23170224e-09    0.00000000e+00    1.80000000e+00    0.00000000e+00    0.00000000e+00    1.79981002e+00
103      8.38347702e-09    0.00000000e+00    1.80000000e+00    0.00000000e+00    0.00000000e+00    1.79986831e+00
104      8.53525180e-09    0.00000000e+00    1.80000000e+00    0.00000000e+00    0.00000000e+00    1.79988550e+00
105      8.68702658e-09    0.00000000e+00    1.80000000e+00    0.00000000e+00    0.00000000e+00    1.79989408e+00
106      8.99057613e-09    0.00000000e+00    1.80000000e+00    0.00000000e+00    0.00000000e+00    1.79990495e+00
107      9.59767525e-09    0.00000000e+00    1.80000000e+00    0.00000000e+00    0.00000000e+00    1.79991539e+00
108      1.00000000e-08    0.00000000e+00    1.80000000e+00    0.00000000e+00    0.00000000e+00    1.79992100e+00
109      1.00396184e-08    3.56565388e-02    1.80000000e+00    0.00000000e+00    0.00000000e+00    1.80015317e+00
110      1.00717152e-08    6.45436616e-02    1.80000000e+00    0.00000000e+00    0.00000000e+00    1.80011853e+00
111      1.01038120e-08    9.34307845e-02    1.80000000e+00    0.00000000e+00    0.00000000e+00    1.80004163e+00
112      1.01680056e-08    1.51205030e-01    1.80000000e+00    0.00000000e+00    0.00000000e+00    1.79993166e+00
113      1.02963928e-08    2.66753521e-01    1.80000000e+00    0.00000000e+00    0.00000000e+00    1.79991664e+00
114      1.05531672e-08    4.97850504e-01    1.80000000e+00    0.00000000e+00    0.00000000e+00    1.79997046e+00
115      1.10667161e-08    9.60044469e-01    1.80000000e+00    0.00000000e+00    0.00000000e+00    1.79994542e+00
116      1.20000000e-08    1.80000000e+00    1.80000000e+00    0.00000000e+00    0.00000000e+00    1.79987673e+00
117      1.21027098e-08    1.80000000e+00    1.80000000e+00    0.00000000e+00    0.00000000e+00    1.79980470e+00
118      1.22054195e-08    1.80000000e+00    1.80000000e+00    0.00000000e+00    0.00000000e+00    1.79989063e+00
119      1.23081293e-08    1.80000000e+00    1.80000000e+00    0.00000000e+00    0.00000000e+00    1.79994493e+00
120      1.25135489e-08    1.80000000e+00    1.80000000e+00    0.00000000e+00    0.00000000e+00    1.79994386e+00
121      1.29243879e-08    1.80000000e+00    1.80000000e+00    0.00000000e+00    0.00000000e+00    1.79994254e+00
122      1.37460661e-08    1.80000000e+00    1.80000000e+00    0.00000000e+00    0.00000000e+00    1.79995017e+00
123      1.40000000e-08    1.80000000e+00    1.80000000e+00    0.00000000e+00    0.00000000e+00    1.79994773e+00
124      1.40102710e-08    1.79075612e+00    1.79075612e+00    9.24387930e-03    0.00000000e+00    1.79988150e+00
125      1.40308129e-08    1.77226836e+00    1.77226836e+00    2.77316379e-02    0.00000000e+00    1.80024702e+00
126      1.40513549e-08    1.75378060e+00    1.75378060e+00    4.62193965e-02    0.00000000e+00    1.80069444e+00
127      1.40924388e-08    1.71680509e+00    1.71680509e+00    8.31949137e-02    0.00000000e+00    1.80120894e+00
128      1.41746066e-08    1.64285405e+00    1.64285405e+00    1.57145948e-01    0.00000000e+00    1.80099125e+00
129      1.42567744e-08    1.56890302e+00    1.56890302e+00    2.31096983e-01    0.00000000e+00    1.80059409e+00
130      1.44211101e-08    1.42100095e+00    1.42100095e+00    3.78999051e-01    0.00000000e+00    1.80019972e+00
131      1.45854457e-08    1.27309888e+00    1.27309888e+00    5.26901120e-01    0.00000000e+00    1.79973382e+00
132      1.46045973e-08    1.25586241e+00    1.25586241e+00    5.44137587e-01    0.00000000e+00    1.79955800e+00
133      1.46429006e-08    1.22138948e+00    1.22138948e+00    5.78610521e-01    0.00000000e+00    1.79902666e+00
134      1.47195071e-08    1.15244361e+00    1.15244361e+00    6.47556388e-01    0.00000000e+00    1.79703968e+00
135      1.47864894e-08    1.09215950e+00    1.09215950e+00    7.07840498e-01    0.00000000e+00    1.79469041e+00
136      1.48465670e-08    1.03808970e+00    1.03808970e+00    7.61910304e-01    0.00000000e+00    1.79191921e+00
137      1.49006368e-08    9.89426870e-01    9.89426870e-01    8.10573130e-01    0.00000000e+00    1.78878562e+00
138      1.49492996e-08    9.45630326e-01    9.45630326e-01    8.54369674e-01    0.00000000e+00    1.78497635e+00
139      1.49930962e-08    9.06213437e-01    9.06213437e-01    8.93786563e-01    0.00000000e+00    1.78012188e+00
140      1.50325131e-08    8.70738237e-01    8.70738237e-01    9.29261763e-01    0.00000000e+00    1.77306437e+00
141      1.50719300e-08    8.35263037e-01    8.35263037e-01    9.64736963e-01    0.00000000e+00    1.76027175e+00
142      1.51039180e-08    8.06473824e-01    8.06473824e-01    9.93526176e-01    0.00000000e+00    1.75265070e+00
143      1.51359060e-08    7.77684610e-01    7.77684610e-01    1.02231539e+00    0.00000000e+00    1.74804954e+00
144      1.51678940e-08    7.48895397e-01    7.48895397e-01    1.05110460e+00    0.00000000e+00    1.74514270e+00
145      1.51998820e-08    7.20106183e-01    7.20106183e-01    1.07989382e+00    0.00000000e+00    1.74333863e+00
146      1.52318700e-08    6.91316970e-01    6.91316970e-01    1.10868303e+00    0.00000000e+00    1.74259392e+00
147      1.52638580e-08    6.62527757e-01    6.62527757e-01    1.13747224e+00    0.00000000e+00    1.74415294e+00
148      1.52958461e-08    6.33738543e-01    6.33738543e-01    1.16626146e+00    0.00000000e+00    1.75210039e+00
149      1.53242886e-08    6.08140220e-01    6.08140220e-01    1.19185978e+00    0.00000000e+00    1.76447471e+00
150      1.53486036e-08    5.86256804e-01    5.86256804e-01    1.21374320e+00    0.00000000e+00    1.77550556e+00
151      1.53729185e-08    5.64373389e-01    5.64373389e-01    1.23562661e+00    0.00000000e+00    1.78482455e+00
152      1.53972334e-08    5.42489973e-01    5.42489973e-01    1.25751003e+00    0.00000000e+00    1.79192441e+00
153      1.54215483e-08    5.20606558e-01    5.20606558e-01    1.27939344e+00    0.00000000e+00    1.79705912e+00
154      1.54458632e-08    4.98723142e-01    4.98723142e-01    1.30127686e+00    0.00000000e+00    1.80083053e+00
155      1.54701781e-08    4.76839726e-01    4.76839726e-01    1.32316027e+00    0.00000000e+00    1.80379207e+00
156      1.55188079e-08    4.33072895e-01    4.33072895e-01    1.36692710e+00    0.00000000e+00    1.80680438e+00
157      1.55674377e-08    3.89306064e-01    3.89306064e-01    1.41069394e+00    0.00000000e+00    1.80852511e+00
158      1.56160675e-08    3.45539233e-01    3.45539233e-01    1.45446077e+00    0.00000000e+00    1.80996846e+00
159      1.56646973e-08    3.01772401e-01    3.01772401e-01    1.49822760e+00    0.00000000e+00    1.81132632e+00
160      1.57133271e-08    2.58005570e-01    2.58005570e-01    1.54199443e+00    0.00000000e+00    1.81233471e+00
161      1.57619570e-08    2.14238739e-01    2.14238739e-01    1.58576126e+00    0.00000000e+00    1.81286080e+00
162      1.57690644e-08    2.07842055e-01    2.07842055e-01    1.59215794e+00    0.00000000e+00    1.81296321e+00
163      1.57761718e-08    2.01445372e-01    2.01445372e-01    1.59855463e+00    0.00000000e+00    1.81305801e+00
164      1.57903867e-08    1.88652005e-01    1.88652005e-01    1.61134800e+00    0.00000000e+00    1.81322406e+00
165      1.58046015e-08    1.75858637e-01    1.75858637e-01    1.62414136e+00    0.00000000e+00    1.81336349e+00
166      1.58188164e-08    1.63065270e-01    1.63065270e-01    1.63693473e+00    0.00000000e+00    1.81348006e+00
167      1.58330312e-08    1.50271903e-01    1.50271903e-01    1.64972810e+00    0.00000000e+00    1.81357863e+00
168      1.58472461e-08    1.37478536e-01    1.37478536e-01    1.66252146e+00    0.00000000e+00    1.81366478e+00
169      1.58614609e-08    1.24685169e-01    1.24685169e-01    1.67531483e+00    0.00000000e+00    1.81374407e+00
170      1.58756758e-08    1.11891802e-01    1.11891802e-01    1.68810820e+00    0.00000000e+00    1.81382135e+00
171      1.58898906e-08    9.90984345e-02    9.90984345e-02    1.70090157e+00    0.00000000e+00    1.81390127e+00
172      1.59041055e-08    8.63050673e-02    8.63050673e-02    1.71369493e+00    0.00000000e+00    1.81399189e+00
173      1.59183203e-08    7.35117001e-02    7.35117001e-02    1.72648830e+00    0.00000000e+00    1.81413584e+00
