Index       TIME              V(A)              V(B)             V(OUT)      
0        0.00000000e+00    0.00000000e+00    0.00000000e+00    1.79999999e+00
1        1.00000000e-12    0.00000000e+00    0.00000000e+00    1.79999999e+00
2        3.00000000e-12    0.00000000e+00    0.00000000e+00    1.79999999e+00
3        7.00000000e-12    0.00000000e+00    0.00000000e+00    1.79999999e+00
4        1.50000000e-11    0.00000000e+00    0.00000000e+00    1.79999999e+00
5        3.10000000e-11    0.00000000e+00    0.00000000e+00    1.79999999e+00
6        6.30000000e-11    0.00000000e+00    0.00000000e+00    1.79999999e+00
7        1.27000000e-10    0.00000000e+00    0.00000000e+00    1.79999999e+00
8        2.55000000e-10    0.00000000e+00    0.00000000e+00    1.79999999e+00
9        5.11000000e-10    0.00000000e+00    0.00000000e+00    1.79999999e+00
10       1.02300000e-09    0.00000000e+00    0.00000000e+00    1.79999999e+00
11       2.00000000e-09    0.00000000e+00    0.00000000e+00    1.79999999e+00
12       2.02868106e-09    2.58129515e-02    0.00000000e+00    1.80314557e+00
13       2.05137733e-09    4.62395996e-02    0.00000000e+00    1.80430218e+00
14       2.07407361e-09    6.66662477e-02    0.00000000e+00    1.80504262e+00
15       2.11946616e-09    1.07519544e-01    0.00000000e+00    1.80537942e+00
16       2.21025126e-09    1.89226136e-01    0.00000000e+00    1.80549680e+00
17       2.30103637e-09    2.70932729e-01    0.00000000e+00    1.80566139e+00
18       2.48260657e-09    4.34345914e-01    0.00000000e+00    1.80600854e+00
19       2.50719039e-09    4.56471349e-01    0.00000000e+00    1.80606200e+00
20       2.55635802e-09    5.00722218e-01    0.00000000e+00    1.80617096e+00
21       2.56961214e-09    5.12650927e-01    0.00000000e+00    1.80620126e+00
22       2.59612038e-09    5.36508345e-01    0.00000000e+00    1.80626269e+00
23       2.64913687e-09    5.84223182e-01    0.00000000e+00    1.80639080e+00
24       2.69685170e-09    6.27166534e-01    0.00000000e+00    1.80651227e+00
25       2.74456654e-09    6.70109887e-01    0.00000000e+00    1.80663999e+00
26       2.79228138e-09    7.13053240e-01    0.00000000e+00    1.80677443e+00
27       2.83999621e-09    7.55996593e-01    0.00000000e+00    1.80691612e+00
28       2.88771105e-09    7.98939945e-01    0.00000000e+00    1.80706564e+00
29       2.98314072e-09    8.84826651e-01    0.00000000e+00    1.80739104e+00
30       3.07857040e-09    9.70713356e-01    0.00000000e+00    1.80775636e+00
31       3.26942974e-09    1.14248677e+00    0.00000000e+00    1.80863598e+00
32       3.46028909e-09    1.31426018e+00    0.00000000e+00    1.80909303e+00
33       3.84200778e-09    1.65780700e+00    0.00000000e+00    1.80013731e+00
34       4.00000000e-09    1.80000000e+00    0.00000000e+00    1.80379985e+00
35       4.03435468e-09    1.80000000e+00    0.00000000e+00    1.80194011e+00
36       4.06870936e-09    1.80000000e+00    0.00000000e+00    1.80099051e+00
37       4.10306405e-09    1.80000000e+00    0.00000000e+00    1.80034859e+00
38       4.17177341e-09    1.80000000e+00    0.00000000e+00    1.80000734e+00
39       4.30919214e-09    1.80000000e+00    0.00000000e+00    1.79999777e+00
40       4.44661087e-09    1.80000000e+00    0.00000000e+00    1.80000051e+00
41       4.72144833e-09    1.80000000e+00    0.00000000e+00    1.79999964e+00
42       5.27112324e-09    1.80000000e+00    0.00000000e+00    1.80000019e+00
43       6.00000000e-09    1.80000000e+00    0.00000000e+00    1.79999977e+00
44       6.02748375e-09    1.77526463e+00    2.47353712e-02    1.80570634e+00
45       6.04725136e-09    1.75747378e+00    4.25262218e-02    1.80839139e+00
46       6.06701897e-09    1.73968293e+00    6.03170724e-02    1.81052845e+00
47       6.10655419e-09    1.70410123e+00    9.58987737e-02    1.81269813e+00
48       6.18562464e-09    1.63293782e+00    1.67062176e-01    1.81416687e+00
49       6.26469509e-09    1.56177442e+00    2.38225579e-01    1.81483233e+00
50       6.42283598e-09    1.41944762e+00    3.80552384e-01    1.81568860e+00
51       6.58097688e-09    1.27712081e+00    5.22879189e-01    1.80638200e+00
52       6.60591636e-09    1.25467527e+00    5.45324727e-01    1.80275203e+00
53       6.63085585e-09    1.23222974e+00    5.67770264e-01    1.79853636e+00
54       6.68073482e-09    1.18733866e+00    6.12661340e-01    1.78662064e+00
55       6.73061379e-09    1.14244758e+00    6.57552415e-01    1.76877508e+00
56       6.78049277e-09    1.09755651e+00    7.02443491e-01    1.74549398e+00
57       6.83037174e-09    1.05266543e+00    7.47334566e-01    1.71737601e+00
58       6.88025071e-09    1.00777436e+00    7.92225641e-01    1.68483349e+00
59       6.93012969e-09    9.62883283e-01    8.37116717e-01    1.64798037e+00
60       6.98000866e-09    9.17992208e-01    8.82007792e-01    1.60670029e+00
61       7.02988763e-09    8.73101133e-01    9.26898867e-01    1.56164564e+00
62       7.07976660e-09    8.28210057e-01    9.71789943e-01    1.51663364e+00
63       7.12964558e-09    7.83318982e-01    1.01668102e+00    1.48044386e+00
64       7.17952455e-09    7.38427906e-01    1.06157209e+00    1.46654313e+00
65       7.22177508e-09    7.00402430e-01    1.09959757e+00    1.48039725e+00
66       7.25926395e-09    6.66662447e-01    1.13333755e+00    1.51180994e+00
67       7.29675282e-09    6.32922464e-01    1.16707754e+00    1.55413815e+00
68       7.33424169e-09    5.99182481e-01    1.20081752e+00    1.59946080e+00
69       7.37173056e-09    5.65442498e-01    1.23455750e+00    1.64203605e+00
70       7.40921943e-09    5.31702515e-01    1.26829749e+00    1.67858163e+00
71       7.44670830e-09    4.97962532e-01    1.30203747e+00    1.70778503e+00
72       7.48419717e-09    4.64222549e-01    1.33577745e+00    1.72972848e+00
73       7.52168604e-09    4.30482566e-01    1.36951743e+00    1.74538842e+00
74       7.55917491e-09    3.96742583e-01    1.40325742e+00    1.75622755e+00
75       7.59666378e-09    3.63002600e-01    1.43699740e+00    1.76373242e+00
76       7.67164152e-09    2.95522633e-01    1.50447737e+00    1.77290416e+00
77       7.82159700e-09    1.60562701e-01    1.63943730e+00    1.78040641e+00
78       8.00000000e-09    0.00000000e+00    1.80000000e+00    1.78297439e+00
79       8.01754493e-09    0.00000000e+00    1.80000000e+00    1.78354838e+00
80       8.03245273e-09    0.00000000e+00    1.80000000e+00    1.78443404e+00
81       8.04736053e-09    0.00000000e+00    1.80000000e+00    1.78545154e+00
82       8.07717612e-09    0.00000000e+00    1.80000000e+00    1.78778472e+00
83       8.13680731e-09    0.00000000e+00    1.80000000e+00    1.79180563e+00
84       8.19643850e-09    0.00000000e+00    1.80000000e+00    1.79436851e+00
85       8.25606969e-09    0.00000000e+00    1.80000000e+00    1.79586768e+00
86       8.37533207e-09    0.00000000e+00    1.80000000e+00    1.79745806e+00
87       8.61385683e-09    0.00000000e+00    1.80000000e+00    1.79864716e+00
88       9.09090635e-09    0.00000000e+00    1.80000000e+00    1.79933714e+00
89       9.56795587e-09    0.00000000e+00    1.80000000e+00    1.79955455e+00
90       1.00000000e-08    0.00000000e+00    1.80000000e+00    1.79966686e+00
91       1.00273365e-08    2.46028722e-02    1.80000000e+00    1.80417069e+00
92       1.00487922e-08    4.39129641e-02    1.80000000e+00    1.80646545e+00
93       1.00702478e-08    6.32230560e-02    1.80000000e+00    1.80827315e+00
94       1.01131592e-08    1.01843240e-01    1.80000000e+00    1.81005711e+00
95       1.01989818e-08    1.79083607e-01    1.80000000e+00    1.81128511e+00
96       1.02848044e-08    2.56323975e-01    1.80000000e+00    1.81193953e+00
97       1.04564497e-08    4.10804710e-01    1.80000000e+00    1.81354470e+00
98       1.05382863e-08    4.84457676e-01    1.80000000e+00    1.81448010e+00
99       1.05655534e-08    5.08998099e-01    1.80000000e+00    1.81481003e+00
100      1.05928206e-08    5.33538522e-01    1.80000000e+00    1.81515125e+00
101      1.06024322e-08    5.42188944e-01    1.80000000e+00    1.81527827e+00
102      1.06120437e-08    5.50839366e-01    1.80000000e+00    1.81540673e+00
103      1.06312669e-08    5.68140211e-01    1.80000000e+00    1.81567230e+00
104      1.06504901e-08    5.85441055e-01    1.80000000e+00    1.81595100e+00
105      1.06697132e-08    6.02741899e-01    1.80000000e+00    1.81624932e+00
106      1.06889364e-08    6.20042744e-01    1.80000000e+00    1.81659988e+00
107      1.07081595e-08    6.37343588e-01    1.80000000e+00    1.81715116e+00
108      1.07273827e-08    6.54644433e-01    1.80000000e+00    1.81843351e+00
109      1.07466059e-08    6.71945277e-01    1.80000000e+00    1.82054654e+00
110      1.07850522e-08    7.06546966e-01    1.80000000e+00    1.81456059e+00
111      1.08176460e-08    7.35881394e-01    1.80000000e+00    1.79007562e+00
112      1.08466873e-08    7.62018599e-01    1.80000000e+00    1.75520097e+00
113      1.08757287e-08    7.88155805e-01    1.80000000e+00    1.70970249e+00
114      1.09047700e-08    8.14293011e-01    1.80000000e+00    1.65434351e+00
115      1.09338114e-08    8.40430216e-01    1.80000000e+00    1.58575824e+00
116      1.09628527e-08    8.66567422e-01    1.80000000e+00    1.49722446e+00
117      1.09889899e-08    8.90090907e-01    1.80000000e+00    1.39588210e+00
118      1.10125134e-08    9.11262044e-01    1.80000000e+00    1.28452214e+00
119      1.10360369e-08    9.32433180e-01    1.80000000e+00    1.15356220e+00
120      1.10595604e-08    9.53604317e-01    1.80000000e+00    1.00802023e+00
121      1.10830838e-08    9.74775454e-01    1.80000000e+00    8.68056465e-01
122      1.11038479e-08    9.93463137e-01    1.80000000e+00    7.60259196e-01
123      1.11217922e-08    1.00961298e+00    1.80000000e+00    6.72568899e-01
124      1.11397365e-08    1.02576282e+00    1.80000000e+00    5.84255473e-01
125      1.11576807e-08    1.04191266e+00    1.80000000e+00    4.94629916e-01
126      1.11808909e-08    1.06280178e+00    1.80000000e+00    3.82806726e-01
127      1.11910817e-08    1.07197354e+00    1.80000000e+00    3.36537727e-01
128      1.12012726e-08    1.08114530e+00    1.80000000e+00    2.92253138e-01
129      1.12216543e-08    1.09948883e+00    1.80000000e+00    2.16294507e-01
130      1.12399978e-08    1.11599800e+00    1.80000000e+00    1.62324021e-01
131      1.12583413e-08    1.13250717e+00    1.80000000e+00    1.20874841e-01
132      1.12766848e-08    1.14901635e+00    1.80000000e+00    9.00101694e-02
133      1.12950284e-08    1.16552552e+00    1.80000000e+00    6.75230746e-02
134      1.13133719e-08    1.18203469e+00    1.80000000e+00    5.13691498e-02
135      1.13317154e-08    1.19854386e+00    1.80000000e+00    3.98377831e-02
136      1.13500589e-08    1.21505303e+00    1.80000000e+00    3.16026540e-02
137      1.13867460e-08    1.24807138e+00    1.80000000e+00    2.11747428e-02
138      1.14601201e-08    1.31410807e+00    1.80000000e+00    1.19387457e-02
139      1.16068683e-08    1.44618145e+00    1.80000000e+00    6.04405763e-03
140      1.17356992e-08    1.56212930e+00    1.80000000e+00    5.20390191e-03
141      1.19933611e-08    1.79402502e+00    1.80000000e+00    4.69676823e-03
142      1.20000000e-08    1.80000000e+00    1.80000000e+00    4.69868155e-03
143      1.20066389e-08    1.80000000e+00    1.80000000e+00    4.03348525e-03
144      1.20132777e-08    1.80000000e+00    1.80000000e+00    3.36222777e-03
145      1.20265555e-08    1.80000000e+00    1.80000000e+00    2.18285374e-03
146      1.20531109e-08    1.80000000e+00    1.80000000e+00    8.32112446e-04
147      1.21062219e-08    1.80000000e+00    1.80000000e+00    5.87256826e-05
148      1.22124438e-08    1.80000000e+00    1.80000000e+00   -2.17071304e-05
149      1.23186657e-08    1.80000000e+00    1.80000000e+00    1.09389103e-05
150      1.25311095e-08    1.80000000e+00    1.80000000e+00   -8.59747920e-06
151      1.29559970e-08    1.80000000e+00    1.80000000e+00    7.89470112e-06
152      1.38057722e-08    1.80000000e+00    1.80000000e+00   -7.49972859e-06
153      1.40000000e-08    1.80000000e+00    1.80000000e+00    6.46619761e-06
154      1.41699550e-08    1.80000000e+00    1.80000000e+00    4.63587316e-07
155      1.45098651e-08    1.80000000e+00    1.80000000e+00    6.25162110e-08
156      1.51896852e-08    1.80000000e+00    1.80000000e+00    7.21023760e-09
157      1.65493254e-08    1.80000000e+00    1.80000000e+00    5.56293243e-08
158      1.90493254e-08    1.80000000e+00    1.80000000e+00    1.03659223e-08
159      2.15493254e-08    1.80000000e+00    1.80000000e+00    5.36864990e-08
160      2.40493254e-08    1.80000000e+00    1.80000000e+00    1.22181163e-08
161      2.50000000e-08    1.80000000e+00    1.80000000e+00    5.06861118e-08
End of Xyce(TM) Simulation
