Index       TIME              V(A)              V(B)             V(OUT)      
0        0.00000000e+00    0.00000000e+00    0.00000000e+00    1.79999983e+00
1        1.00000000e-12    0.00000000e+00    0.00000000e+00    1.79999983e+00
2        3.00000000e-12    0.00000000e+00    0.00000000e+00    1.79999983e+00
3        7.00000000e-12    0.00000000e+00    0.00000000e+00    1.79999983e+00
4        1.50000000e-11    0.00000000e+00    0.00000000e+00    1.79999983e+00
5        3.10000000e-11    0.00000000e+00    0.00000000e+00    1.79999983e+00
6        6.30000000e-11    0.00000000e+00    0.00000000e+00    1.79999983e+00
7        1.27000000e-10    0.00000000e+00    0.00000000e+00    1.79999983e+00
8        2.55000000e-10    0.00000000e+00    0.00000000e+00    1.79999983e+00
9        5.11000000e-10    0.00000000e+00    0.00000000e+00    1.79999983e+00
10       1.02300000e-09    0.00000000e+00    0.00000000e+00    1.79999983e+00
11       2.00000000e-09    0.00000000e+00    0.00000000e+00    1.79999983e+00
12       2.02775293e-09    2.49776362e-02    0.00000000e+00    1.80886926e+00
13       2.04841100e-09    4.35699006e-02    0.00000000e+00    1.81447657e+00
14       2.06906907e-09    6.21621650e-02    0.00000000e+00    1.81960370e+00
15       2.11038522e-09    9.93466938e-02    0.00000000e+00    1.82735059e+00
16       2.15170136e-09    1.36531223e-01    0.00000000e+00    1.83254347e+00
17       2.23433364e-09    2.10900280e-01    0.00000000e+00    1.83870878e+00
18       2.39959822e-09    3.59638396e-01    0.00000000e+00    1.84389584e+00
19       2.56486279e-09    5.08376511e-01    0.00000000e+00    1.84231834e+00
20       2.58326483e-09    5.24938344e-01    0.00000000e+00    1.84093608e+00
21       2.62006890e-09    5.58062010e-01    0.00000000e+00    1.83586816e+00
22       2.69367705e-09    6.24309342e-01    0.00000000e+00    1.80779715e+00
23       2.75709818e-09    6.81388359e-01    0.00000000e+00    1.76139609e+00
24       2.81417719e-09    7.32759474e-01    0.00000000e+00    1.69406784e+00
25       2.86546762e-09    7.78920858e-01    0.00000000e+00    1.60397966e+00
26       2.87271530e-09    7.85443767e-01    0.00000000e+00    1.58775347e+00
27       2.87996297e-09    7.91966675e-01    0.00000000e+00    1.57082812e+00
28       2.89445833e-09    8.05012493e-01    0.00000000e+00    1.53318436e+00
29       2.90895368e-09    8.18058310e-01    0.00000000e+00    1.48973649e+00
30       2.92344903e-09    8.31104127e-01    0.00000000e+00    1.43965006e+00
31       2.93794438e-09    8.44149944e-01    0.00000000e+00    1.38227805e+00
32       2.95243973e-09    8.57195761e-01    0.00000000e+00    1.31727276e+00
33       2.96693509e-09    8.70241579e-01    0.00000000e+00    1.24465508e+00
34       2.98143044e-09    8.83287396e-01    0.00000000e+00    1.16460021e+00
35       2.99592579e-09    8.96333213e-01    0.00000000e+00    1.07726782e+00
36       3.01042114e-09    9.09379030e-01    0.00000000e+00    9.82786227e-01
37       3.02491650e-09    9.22424848e-01    0.00000000e+00    8.81285228e-01
38       3.03941185e-09    9.35470665e-01    0.00000000e+00    7.72938876e-01
39       3.05390720e-09    9.48516482e-01    0.00000000e+00    6.58038675e-01
40       3.06840255e-09    9.61562299e-01    0.00000000e+00    5.37184708e-01
41       3.08289791e-09    9.74608116e-01    0.00000000e+00    4.12113227e-01
42       3.09595148e-09    9.86356331e-01    0.00000000e+00    3.03169226e-01
43       3.10163134e-09    9.91468208e-01    0.00000000e+00    2.59687737e-01
44       3.10731121e-09    9.96580086e-01    0.00000000e+00    2.19428129e-01
45       3.11867093e-09    1.00680384e+00    0.00000000e+00    1.54766671e-01
46       3.12889469e-09    1.01600522e+00    0.00000000e+00    1.12801066e-01
47       3.13911844e-09    1.02520660e+00    0.00000000e+00    8.31426539e-02
48       3.14934220e-09    1.03440798e+00    0.00000000e+00    6.27438482e-02
49       3.15956595e-09    1.04360936e+00    0.00000000e+00    4.89697596e-02
50       3.16978971e-09    1.05281074e+00    0.00000000e+00    3.97383221e-02
51       3.19023722e-09    1.07121349e+00    0.00000000e+00    2.90105574e-02
52       3.21068472e-09    1.08961625e+00    0.00000000e+00    2.39145850e-02
53       3.23113223e-09    1.10801901e+00    0.00000000e+00    2.09898880e-02
54       3.27202725e-09    1.14482453e+00    0.00000000e+00    1.71705203e-02
55       3.31292227e-09    1.18163004e+00    0.00000000e+00    1.44430266e-02
56       3.39471231e-09    1.25524108e+00    0.00000000e+00    1.04589300e-02
57       3.55829238e-09    1.40246314e+00    0.00000000e+00    6.35419156e-03
58       3.72187245e-09    1.54968521e+00    0.00000000e+00    4.62847576e-03
59       3.88545252e-09    1.69690727e+00    0.00000000e+00    4.77794957e-03
60       4.00000000e-09    1.80000000e+00    0.00000000e+00    4.22104937e-03
61       4.01635801e-09    1.80000000e+00    0.00000000e+00    1.68789121e-03
62       4.03271601e-09    1.80000000e+00    0.00000000e+00    6.74595055e-04
63       4.04907402e-09    1.80000000e+00    0.00000000e+00    9.59492706e-05
64       4.08179004e-09    1.80000000e+00    0.00000000e+00   -2.04710591e-05
65       4.14722207e-09    1.80000000e+00    0.00000000e+00    1.10213831e-05
66       4.21265409e-09    1.80000000e+00    0.00000000e+00   -5.71712932e-06
67       4.34351815e-09    1.80000000e+00    0.00000000e+00    4.22086535e-06
68       4.60524627e-09    1.80000000e+00    0.00000000e+00   -3.59840512e-06
69       5.12870250e-09    1.80000000e+00    0.00000000e+00    3.34780903e-06
70       6.00000000e-09    1.80000000e+00    0.00000000e+00   -3.18020024e-06
71       6.02617281e-09    1.77644447e+00    2.35555305e-02   -2.51085916e-03
72       6.04565739e-09    1.75890835e+00    4.10916515e-02   -3.13203943e-03
73       6.06514197e-09    1.74137223e+00    5.86277725e-02   -3.45027108e-03
74       6.10411113e-09    1.70629999e+00    9.37000146e-02   -3.49618977e-03
75       6.18204944e-09    1.63615550e+00    1.63844499e-01   -3.61577927e-03
76       6.25998776e-09    1.56601102e+00    2.33988983e-01   -3.74898978e-03
77       6.41586439e-09    1.42572205e+00    3.74277951e-01   -4.05016380e-03
78       6.46317738e-09    1.38314036e+00    4.16859645e-01   -4.08634696e-03
79       6.55780337e-09    1.29797697e+00    5.02023032e-01   -3.11313324e-03
80       6.65242936e-09    1.21281358e+00    5.87186420e-01   -3.84644101e-04
81       6.84168133e-09    1.04248681e+00    7.57513194e-01    5.92638559e-03
82       7.01200810e-09    8.89192709e-01    9.10807291e-01    1.21442838e-02
83       7.16232026e-09    7.53911769e-01    1.04608823e+00    1.50860251e-02
84       7.28257679e-09    6.45680890e-01    1.15431911e+00    1.42023251e-02
85       7.37930133e-09    5.58628801e-01    1.24137120e+00    1.12522125e-02
86       7.47686354e-09    4.70822812e-01    1.32917719e+00    9.04440670e-03
87       7.56268089e-09    3.93587197e-01    1.40641280e+00    8.09178874e-03
88       7.64849824e-09    3.16351583e-01    1.48364842e+00    7.35396117e-03
89       7.73431559e-09    2.39115968e-01    1.56088403e+00    5.53938521e-03
90       7.82013294e-09    1.61880354e-01    1.63811965e+00    5.16469303e-03
91       7.90595029e-09    8.46447392e-02    1.71535526e+00    4.55965227e-03
92       8.00000000e-09    0.00000000e+00    1.80000000e+00    4.34613205e-03
93       8.01716347e-09    0.00000000e+00    1.80000000e+00    4.05006905e-03
94       8.02976540e-09    0.00000000e+00    1.80000000e+00    3.80498814e-03
95       8.05496926e-09    0.00000000e+00    1.80000000e+00    3.32322636e-03
96       8.10537697e-09    0.00000000e+00    1.80000000e+00    2.54769701e-03
97       8.15578468e-09    0.00000000e+00    1.80000000e+00    2.02859991e-03
98       8.20619240e-09    0.00000000e+00    1.80000000e+00    1.65706710e-03
99       8.30700782e-09    0.00000000e+00    1.80000000e+00    1.17144259e-03
100      8.50863868e-09    0.00000000e+00    1.80000000e+00    6.81744781e-04
101      8.71026953e-09    0.00000000e+00    1.80000000e+00    4.60309509e-04
102      8.91190039e-09    0.00000000e+00    1.80000000e+00    3.33724555e-04
103      9.31516210e-09    0.00000000e+00    1.80000000e+00    2.03685535e-04
104      9.71842381e-09    0.00000000e+00    1.80000000e+00    1.42145025e-04
105      1.00000000e-08    0.00000000e+00    1.80000000e+00    1.15842878e-04
106      1.00177702e-08    1.59932171e-02    1.80000000e+00    1.58635957e-03
107      1.00327624e-08    2.94862002e-02    1.80000000e+00    2.06987952e-03
108      1.00477546e-08    4.29791833e-02    1.80000000e+00    2.31829825e-03
109      1.00777391e-08    6.99651494e-02    1.80000000e+00    2.30873524e-03
110      1.01377079e-08    1.23937082e-01    1.80000000e+00    2.19526851e-03
111      1.02576455e-08    2.31880946e-01    1.80000000e+00    2.16682546e-03
112      1.04975208e-08    4.47768676e-01    1.80000000e+00    2.40333159e-03
113      1.09772713e-08    8.79544134e-01    1.80000000e+00    4.09204754e-03
114      1.19367723e-08    1.74309505e+00    1.80000000e+00    1.52591066e-03
115      1.20000000e-08    1.80000000e+00    1.80000000e+00    2.60228282e-03
116      1.20632277e-08    1.80000000e+00    1.80000000e+00    2.47100010e-04
117      1.21264554e-08    1.80000000e+00    1.80000000e+00    2.34595790e-05
118      1.21896832e-08    1.80000000e+00    1.80000000e+00   -1.59974629e-05
119      1.23161386e-08    1.80000000e+00    1.80000000e+00    1.33365434e-05
120      1.25690495e-08    1.80000000e+00    1.80000000e+00   -1.21502287e-05
121      1.30748713e-08    1.80000000e+00    1.80000000e+00    1.16105542e-05
122      1.40000000e-08    1.80000000e+00    1.80000000e+00   -1.13160496e-05
123      1.41011644e-08    1.80000000e+00    1.80000000e+00   -5.31408989e-07
124      1.43034931e-08    1.80000000e+00    1.80000000e+00   -1.02103170e-08
125      1.47081505e-08    1.80000000e+00    1.80000000e+00    1.48548777e-08
126      1.55174653e-08    1.80000000e+00    1.80000000e+00   -9.11413347e-09
127      1.71360949e-08    1.80000000e+00    1.80000000e+00    1.43530766e-08
128      1.96360949e-08    1.80000000e+00    1.80000000e+00   -8.84585307e-09
129      2.21360949e-08    1.80000000e+00    1.80000000e+00    1.41379273e-08
130      2.46360949e-08    1.80000000e+00    1.80000000e+00   -8.63296273e-09
131      2.50000000e-08    1.80000000e+00    1.80000000e+00    1.34103457e-08
End of Xyce(TM) Simulation
